
T1584 000:028 SEGGER J-Link V4.56d Log File (0001ms, 0029ms total)
T1584 000:028 DLL Compiled: Nov 12 2012 20:40:34 (0001ms, 0029ms total)
T1584 000:028 Logging started @ 2016-12-29 21:28 (0001ms, 0029ms total)
T1584 000:029 JLINK_SetWarnOutHandler(...) (0000ms, 0029ms total)
T1584 000:029 JLINK_OpenEx(...)
Firmware: J-Link ARM V8 compiled Nov 28 2014 13:44:46
Hardware: V8.00
S/N: 17935099
Feature(s): RDI,FlashDL,FlashBP,JFlash  returns O.K. (0008ms, 0037ms total)
T1584 000:037 JLINK_SetErrorOutHandler(...) (0000ms, 0037ms total)
T1584 000:037 JLINK_ExecCommand("ProjectFile = "C:\work\work\lambda\JLinkSettings.ini"", ...)  returns 0x00 (0000ms, 0037ms total)
T1584 000:041 JLINK_ExecCommand("Device = STM32F373VC", ...)
                JLINK_ExecCommand("map ram 0x20000000 - 0x20007FFF", ...)  returns 0x00 (0000ms, 0000ms total)
                JLINK_AddMirrorAreaEx(Addr = 0x00000000, Size = 0x00000000) (0000ms, 0000ms total)
              Device "STM32F373VC" selected (256 KB flash, 32 KB RAM).  returns 0x00 (0005ms, 0042ms total)
T1584 000:046 JLINK_ExecCommand("DisableConnectionTimeout", ...)  returns 0x00 (0000ms, 0042ms total)
T1584 000:046 JLINK_GetHardwareVersion()  returns 0x13880 (0000ms, 0042ms total)
T1584 000:046 JLINK_GetDLLVersion()  returns 45604 (0000ms, 0042ms total)
T1584 000:046 JLINK_GetFirmwareString(...) (0000ms, 0042ms total)
T1584 000:052 JLINK_GetDLLVersion()  returns 45604 (0000ms, 0042ms total)
T1584 000:052 JLINK_GetCompileDateTime() (0000ms, 0042ms total)
T1584 000:054 JLINK_GetFirmwareString(...) (0000ms, 0042ms total)
T1584 000:056 JLINK_GetHardwareVersion()  returns 0x13880 (0000ms, 0042ms total)
T1584 000:062 JLINK_TIF_Select(JLINKARM_TIF_JTAG)  returns 0x00 (0000ms, 0042ms total)
T1584 000:062 JLINK_SetSpeed(5000) (0000ms, 0042ms total)
T1584 000:062 JLINK_GetIdData(...) >0x2F8 JTAG>TotalIRLen = 9, IRPrint = 0x0011 >0x30 JTAG> >0x210 JTAG> >0x40 JTAG> >0x40 JTAG> >0x40 JTAG> >0x30 JTAG> >0x40 JTAG> >0x40 JTAG> >0x40 JTAG> >0x40 JTAG> >0x40 JTAG> >0x40 JTAG> >0x40 JTAG> >0x40 JTAG> >0x40 JTAG> >0x40 JTAG> >0x40 JTAG> >0x40 JTAG> >0x40 JTAG> >0x40 JTAG> >0x40 JTAG> >0x2F8 JTAG>TotalIRLen = 9, IRPrint = 0x0011 >0x30 JTAG> >0x210 JTAG> >0x80 JTAG> >0x40 JTAG> >0x40 JTAG> >0x50 JTAG> >0x40 JTAG> >0x40 JTAG> >0x40 JTAG> >0x50 JTAG>
 >0x40 JTAG> >0x40 JTAG> >0x40 JTAG> >0x30 JTAG> >0x40 JTAG> >0x50 JTAG> >0x40 JTAG> >0x38 JTAG> >0x80 JTAG> >0x40 JTAG> >0x40 JTAG> >0x50 JTAG> >0x40 JTAG> >0x40 JTAG> >0x40 JTAG> >0x50 JTAG> >0x40 JTAG> >0x40 JTAG> >0x30 JTAG> >0x40 JTAG> >0x40 JTAG> >0x40 JTAG> >0x40 JTAG> >0x40 JTAG> >0x50 JTAG> >0x40 JTAG> >0x80 JTAG> >0x40 JTAG> >0x30 JTAG> >0x40 JTAG> >0x40 JTAG> >0x40 JTAG> >0x40 JTAG> >0x40 JTAG> >0x50 JTAG> >0x40 JTAG> >0x80 JTAG> >0x40 JTAG> >0x30 JTAG> >0x40 JTAG> >0x50 JTAG> >0x40 JTAG>
 >0x40 JTAG> >0x40 JTAG> >0x30 JTAG> >0x40 JTAG> >0x50 JTAG> >0x40 JTAG>Found Cortex-M4 r0p1, Little endian. >0x50 JTAG> >0x50 JTAG> >0x40 JTAG> >0x40 JTAG> >0x30 JTAG> >0x30 JTAG> >0x50 JTAG> >0x40 JTAG> >0x80 JTAG> >0x40 JTAG> >0x30 JTAG> >0x40 JTAG> >0x50 JTAG> >0x40 JTAG> >0x40 JTAG> >0x40 JTAG> >0x30 JTAG> >0x30 JTAG> >0x50 JTAG> >0x40 JTAG> >0x80 JTAG> >0x40 JTAG> >0x30 JTAG> >0x40 JTAG> >0x50 JTAG> >0x40 JTAG>TPIU fitted. >0x40 JTAG> >0x40 JTAG> >0x30 JTAG> >0x40 JTAG> >0x50 JTAG> >0x40 JTAG>
ETM fitted. >0x40 JTAG> >0x40 JTAG> >0x30 JTAG> >0x40 JTAG> >0x50 JTAG> >0x40 JTAG> >0x40 JTAG> >0x40 JTAG> >0x30 JTAG> >0x40 JTAG> >0x50 JTAG> >0x40 JTAG>FPUnit: 6 code (BP) slots and 2 literal slots >0x40 JTAG> >0x40 JTAG> >0x30 JTAG> >0x40 JTAG> >0x50 JTAG> >0x40 JTAG> >0x40 JTAG> >0x40 JTAG> >0x30 JTAG> >0x30 JTAG> >0x50 JTAG> >0x40 JTAG> >0x80 JTAG> >0x40 JTAG> >0x30 JTAG> >0x40 JTAG> >0x50 JTAG> >0x40 JTAG> >0x40 JTAG> >0x40 JTAG> >0x30 JTAG> >0x30 JTAG> >0x50 JTAG> >0x40 JTAG>
 -- CPU_WriteMem(32768 bytes @ 0x20000000) ScanLen=9 NumDevices=2 aId[0]=0x4BA00477 aIrRead[0]=0 aScanLen[0]=0 aScanRead[0]=0 (0138ms, 0180ms total)
T1584 000:200 JLINK_JTAG_GetDeviceID(DeviceIndex = 0)  returns 0x4BA00477 (0000ms, 0180ms total)
T1584 000:200 JLINK_JTAG_GetDeviceInfo(DeviceIndex = 0)  returns 0x00 (0000ms, 0180ms total)
T1584 000:200 JLINK_JTAG_GetDeviceID(DeviceIndex = 1)  returns 0x6432041 (0000ms, 0180ms total)
T1584 000:200 JLINK_JTAG_GetDeviceInfo(DeviceIndex = 1)  returns 0x00 (0000ms, 0180ms total)
T1584 000:200 JLINK_GetDLLVersion()  returns 45604 (0000ms, 0180ms total)
T1584 000:200 JLINK_CORE_GetFound()  returns 0xE0000FF (0000ms, 0180ms total)
T1584 000:202 JLINK_GetDebugInfo(0x100) -- Value=0xE00FF003  returns 0x00 (0000ms, 0180ms total)
T1584 000:202 JLINK_GetDebugInfo(0x101)  returns 0xFFFFFFFF (0000ms, 0180ms total)
T1584 000:202 JLINK_ReadMem (0xE0041FF0, 0x0010 Bytes, ...) -- CPU_ReadMem(16 bytes @ 0xE0041FF0) -- Data:  0D 00 00 00 90 00 00 00 05 00 00 00 B1 00 00 00  returns 0x00 (0000ms, 0180ms total)
T1584 000:202 JLINK_GetDebugInfo(0x102)  returns 0xFFFFFFFF (0000ms, 0180ms total)
T1584 000:202 JLINK_GetDebugInfo(0x103)  returns 0xFFFFFFFF (0000ms, 0180ms total)
T1584 000:202 JLINK_ReadMem (0xE0040FF0, 0x0010 Bytes, ...) -- CPU_ReadMem(16 bytes @ 0xE0040FF0) -- Data:  0D 00 00 00 90 00 00 00 05 00 00 00 B1 00 00 00  returns 0x00 (0001ms, 0181ms total)
T1584 000:203 JLINK_GetDebugInfo(0x104)  returns 0xFFFFFFFF (0000ms, 0181ms total)
T1584 000:203 JLINK_GetDebugInfo(0x105)  returns 0xFFFFFFFF (0000ms, 0181ms total)
T1584 000:203 JLINK_GetDebugInfo(0x106)  returns 0xFFFFFFFF (0000ms, 0181ms total)
T1584 000:203 JLINK_GetDebugInfo(0x107)  returns 0xFFFFFFFF (0000ms, 0181ms total)
T1584 000:203 JLINK_GetDebugInfo(0x10C)  returns 0xFFFFFFFF (0000ms, 0181ms total)
T1584 000:203 JLINK_ReadMemU32(0xE000EF40, 0x0001 Items, ...) -- CPU_ReadMem(4 bytes @ 0xE000EF40) -- Data:  21 00 11 10  returns 0x01 (0000ms, 0181ms total)
T1584 000:203 JLINK_ReadMemU32(0xE000EF44, 0x0001 Items, ...) -- CPU_ReadMem(4 bytes @ 0xE000EF44) -- Data:  11 00 00 11  returns 0x01 (0001ms, 0182ms total)
T1584 000:204 JLINK_ReadMemU32(0xE000ED00, 0x0001 Items, ...) -- CPU_ReadMem(4 bytes @ 0xE000ED00) -- Data:  41 C2 0F 41  returns 0x01 (0000ms, 0182ms total)
T1584 000:204 JLINK_SetResetType(JLINKARM_RESET_TYPE_NORMAL)  returns JLINKARM_RESET_TYPE_NORMAL (0000ms, 0182ms total)
T1584 000:204 JLINK_Reset() >0x88 JTAG> >0x80 JTAG> >0x40 JTAG> >0x40 JTAG> >0x50 JTAG> >0x40 JTAG> >0x40 JTAG> >0x40 JTAG> >0x50 JTAG> >0x40 JTAG> >0x40 JTAG> >0x30 JTAG> >0x40 JTAG> >0x40 JTAG> >0x40 JTAG> >0x40 JTAG> >0x40 JTAG> >0x50 JTAG> >0x40 JTAG> >0x80 JTAG> >0x40 JTAG> >0x30 JTAG> >0x40 JTAG> >0x40 JTAG> >0x40 JTAG> >0x40 JTAG> >0x40 JTAG> >0x50 JTAG> >0x40 JTAG> >0x80 JTAG> >0x40 JTAG> >0x30 JTAG> >0x40 JTAG> >0x50 JTAG> >0x40 JTAG> >0x40 JTAG> >0x40 JTAG> >0x30 JTAG> >0x40 JTAG> >0x50 JTAG>
 >0x40 JTAG>Found Cortex-M4 r0p1, Little endian. >0x50 JTAG> >0x50 JTAG> >0x40 JTAG> >0x40 JTAG> >0x30 JTAG> >0x30 JTAG> >0x50 JTAG> >0x40 JTAG> >0x80 JTAG> >0x40 JTAG> >0x30 JTAG> >0x40 JTAG> >0x50 JTAG> >0x40 JTAG> >0x40 JTAG> >0x40 JTAG> >0x30 JTAG> >0x40 JTAG> >0x50 JTAG> >0x40 JTAG>TPIU fitted. >0x40 JTAG> >0x40 JTAG> >0x30 JTAG> >0x40 JTAG> >0x50 JTAG> >0x40 JTAG>ETM fitted. >0x40 JTAG> >0x40 JTAG> >0x30 JTAG> >0x40 JTAG> >0x50 JTAG> >0x40 JTAG> >0x40 JTAG> >0x40 JTAG> >0x30 JTAG> >0x40 JTAG>
 >0x50 JTAG> >0x40 JTAG>FPUnit: 6 code (BP) slots and 2 literal slots >0x40 JTAG> >0x40 JTAG> >0x30 JTAG> >0x40 JTAG> >0x50 JTAG> >0x40 JTAG> >0x40 JTAG> >0x40 JTAG> >0x30 JTAG> >0x40 JTAG> >0x50 JTAG> >0x40 JTAG> >0x40 JTAG> >0x40 JTAG> >0x30 JTAG> >0x30 JTAG> >0x50 JTAG> >0x40 JTAG> -- CPU_WriteMem(4 bytes @ 0xE000EDF0) -- CPU_WriteMem(4 bytes @ 0xE000EDFC) -- CPU_WriteMem(4 bytes @ 0xE000ED0C) -- CPU_ReadMem(4 bytes @ 0xE000EDF0) -- CPU_ReadMem(4 bytes @ 0xE000EDF0)
 -- CPU_WriteMem(4 bytes @ 0xE000EDF0) -- CPU_WriteMem(4 bytes @ 0xE000EDFC) -- CPU is running -- CPU_ReadMem(4 bytes @ 0xE000EDF0) >0xD0 JTAG> >0x40 JTAG> >0x30 JTAG> >0x40 JTAG> >0x50 JTAG> >0x40 JTAG> -- CPU_WriteMem(4 bytes @ 0xE000EDFC) -- CPU_WriteMem(4 bytes @ 0xE0001028) -- CPU_WriteMem(4 bytes @ 0xE0001038) -- CPU_WriteMem(4 bytes @ 0xE0001048) -- CPU_WriteMem(4 bytes @ 0xE0001058) -- CPU_WriteMem(4 bytes @ 0xE0002000) (0056ms, 0238ms total)
T1584 000:260 JLINK_Halt()  returns 0x00 (0000ms, 0238ms total)
T1584 000:261 JLINK_IsHalted()  returns TRUE (0000ms, 0239ms total)
T1584 000:261 JLINK_ReadMemU32(0xE000EDF0, 0x0001 Items, ...) -- CPU_ReadMem(4 bytes @ 0xE000EDF0) -- Data:  03 00 03 00  returns 0x01 (0000ms, 0239ms total)
T1584 000:261 JLINK_WriteU32(0xE000EDF0, 0xA05F0003) -- CPU_WriteMem(4 bytes @ 0xE000EDF0)  returns 0x00 (0000ms, 0239ms total)
T1584 000:261 JLINK_WriteU32(0xE000EDFC, 0x01000000) -- CPU_WriteMem(4 bytes @ 0xE000EDFC)  returns 0x00 (0001ms, 0240ms total)
T1584 000:269 JLINK_GetHWStatus(...)  returns 0x00 (0000ms, 0240ms total)
T1584 000:274 JLINK_GetNumBPUnits(Type = 0xFFFFFF00)  returns 0x06 (0000ms, 0240ms total)
T1584 000:274 JLINK_GetNumBPUnits(Type = 0xF0)  returns 0x2000 (0000ms, 0240ms total)
T1584 000:274 JLINK_GetNumWPUnits()  returns 0x04 (0000ms, 0240ms total)
T1584 000:280 JLINK_GetSpeed()  returns 0x12C0 (0000ms, 0240ms total)
T1584 000:284 JLINK_ReadMemU32(0xE000E004, 0x0001 Items, ...) -- CPU_ReadMem(4 bytes @ 0xE000E004) -- Data:  02 00 00 00  returns 0x01 (0001ms, 0241ms total)
T1584 000:285 JLINK_ReadMemU32(0xE000E004, 0x0001 Items, ...) -- CPU_ReadMem(4 bytes @ 0xE000E004) -- Data:  02 00 00 00  returns 0x01 (0000ms, 0241ms total)
T1584 000:285 JLINK_WriteMem(0xE0001000, 0x001C Bytes, ...) -- Data:  01 00 00 00 00 00 00 00 00 00 00 00 00 00 00 00 ... -- CPU_WriteMem(28 bytes @ 0xE0001000)  returns 0x1C (0001ms, 0242ms total)
T1584 000:286 JLINK_ReadMem (0xE0001000, 0x001C Bytes, ...) -- CPU_ReadMem(28 bytes @ 0xE0001000) -- Data:  01 00 00 40 00 00 00 00 00 00 00 00 00 00 00 00 ...  returns 0x00 (0000ms, 0242ms total)
T1584 000:286 JLINK_Halt()  returns 0x00 (0000ms, 0242ms total)
T1584 000:286 JLINK_IsHalted()  returns TRUE (0000ms, 0242ms total)
T1584 000:289 JLINK_WriteMem(0x20000000, 0x0134 Bytes, ...) -- Data:  00 BE 0A E0 0D 78 2D 06 68 40 08 24 40 00 00 D3 ... -- CPU_WriteMem(308 bytes @ 0x20000000)  returns 0x134 (0003ms, 0245ms total)
T1584 000:292 JLINK_WriteReg(R0, 0x08000000)  returns 0x00 (0000ms, 0245ms total)
T1584 000:292 JLINK_WriteReg(R1, 0x00B71B00)  returns 0x00 (0000ms, 0245ms total)
T1584 000:292 JLINK_WriteReg(R2, 0x00000001)  returns 0x00 (0000ms, 0245ms total)
T1584 000:292 JLINK_WriteReg(R3, 0x00000000)  returns 0x00 (0000ms, 0245ms total)
T1584 000:292 JLINK_WriteReg(R4, 0x00000000)  returns 0x00 (0000ms, 0245ms total)
T1584 000:292 JLINK_WriteReg(R5, 0x00000000)  returns 0x00 (0000ms, 0245ms total)
T1584 000:292 JLINK_WriteReg(R6, 0x00000000)  returns 0x00 (0000ms, 0245ms total)
T1584 000:292 JLINK_WriteReg(R7, 0x00000000)  returns 0x00 (0000ms, 0245ms total)
T1584 000:292 JLINK_WriteReg(R8, 0x00000000)  returns 0x00 (0000ms, 0245ms total)
T1584 000:292 JLINK_WriteReg(R9, 0x20000130)  returns 0x00 (0000ms, 0245ms total)
T1584 000:292 JLINK_WriteReg(R10, 0x00000000)  returns 0x00 (0000ms, 0245ms total)
T1584 000:292 JLINK_WriteReg(R11, 0x00000000)  returns 0x00 (0000ms, 0245ms total)
T1584 000:292 JLINK_WriteReg(R12, 0x00000000)  returns 0x00 (0000ms, 0245ms total)
T1584 000:292 JLINK_WriteReg(R13, 0x20001000)  returns 0x00 (0000ms, 0245ms total)
T1584 000:292 JLINK_WriteReg(R14, 0x20000001)  returns 0x00 (0000ms, 0245ms total)
T1584 000:292 JLINK_WriteReg(R15, 0x20000038)  returns 0x00 (0000ms, 0245ms total)
T1584 000:292 JLINK_WriteReg(XPSR, 0x01000000)  returns 0x00 (0000ms, 0245ms total)
T1584 000:292 JLINK_WriteReg(MSP, 0x20001000)  returns 0x00 (0000ms, 0245ms total)
T1584 000:292 JLINK_WriteReg(PSP, 0x20001000)  returns 0x00 (0000ms, 0245ms total)
T1584 000:292 JLINK_WriteReg(CFBP, 0x00000000)  returns 0x00 (0000ms, 0245ms total)
T1584 000:292 JLINK_SetBPEx(Addr = 0x20000000, Type = 0xFFFFFFF2) -- CPU_ReadMem(2 bytes @ 0x20000000)  returns 0x00000001 (0000ms, 0245ms total)
T1584 000:292 JLINK_Go() -- CPU_WriteMem(2 bytes @ 0x20000000) -- CPU_WriteMem(4 bytes @ 0xE0002008) -- CPU_WriteMem(4 bytes @ 0xE000200C) -- CPU_WriteMem(4 bytes @ 0xE0002010) -- CPU_WriteMem(4 bytes @ 0xE0002014) -- CPU_WriteMem(4 bytes @ 0xE0002018) -- CPU_WriteMem(4 bytes @ 0xE000201C) (0005ms, 0250ms total)
T1584 000:297 JLINK_IsHalted() -- CPU_ReadMem(2 bytes @ 0x20000000)  returns TRUE (0002ms, 0252ms total)
T1584 000:299 JLINK_ReadReg(R15)  returns 0x20000000 (0000ms, 0250ms total)
T1584 000:299 JLINK_ClrBPEx(BPHandle = 0x00000001)  returns 0x00 (0000ms, 0250ms total)
T1584 000:299 JLINK_ReadReg(R0)  returns 0x00000000 (0000ms, 0250ms total)
T1584 000:300 JLINK_WriteReg(R0, 0x08000000)  returns 0x00 (0000ms, 0250ms total)
T1584 000:300 JLINK_WriteReg(R1, 0x00000800)  returns 0x00 (0000ms, 0250ms total)
T1584 000:300 JLINK_WriteReg(R2, 0x000000FF)  returns 0x00 (0000ms, 0250ms total)
T1584 000:300 JLINK_WriteReg(R3, 0x00000000)  returns 0x00 (0000ms, 0250ms total)
T1584 000:300 JLINK_WriteReg(R4, 0x00000000)  returns 0x00 (0000ms, 0250ms total)
T1584 000:300 JLINK_WriteReg(R5, 0x00000000)  returns 0x00 (0000ms, 0250ms total)
T1584 000:300 JLINK_WriteReg(R6, 0x00000000)  returns 0x00 (0000ms, 0250ms total)
T1584 000:300 JLINK_WriteReg(R7, 0x00000000)  returns 0x00 (0000ms, 0250ms total)
T1584 000:300 JLINK_WriteReg(R8, 0x00000000)  returns 0x00 (0000ms, 0250ms total)
T1584 000:300 JLINK_WriteReg(R9, 0x20000130)  returns 0x00 (0000ms, 0250ms total)
T1584 000:300 JLINK_WriteReg(R10, 0x00000000)  returns 0x00 (0000ms, 0250ms total)
T1584 000:300 JLINK_WriteReg(R11, 0x00000000)  returns 0x00 (0000ms, 0250ms total)
T1584 000:300 JLINK_WriteReg(R12, 0x00000000)  returns 0x00 (0000ms, 0250ms total)
T1584 000:300 JLINK_WriteReg(R13, 0x20001000)  returns 0x00 (0000ms, 0250ms total)
T1584 000:300 JLINK_WriteReg(R14, 0x20000001)  returns 0x00 (0000ms, 0250ms total)
T1584 000:300 JLINK_WriteReg(R15, 0x20000020)  returns 0x00 (0000ms, 0250ms total)
T1584 000:300 JLINK_WriteReg(XPSR, 0x01000000)  returns 0x00 (0000ms, 0250ms total)
T1584 000:300 JLINK_WriteReg(MSP, 0x20001000)  returns 0x00 (0000ms, 0250ms total)
T1584 000:300 JLINK_WriteReg(PSP, 0x20001000)  returns 0x00 (0000ms, 0250ms total)
T1584 000:300 JLINK_WriteReg(CFBP, 0x00000000)  returns 0x00 (0000ms, 0250ms total)
T1584 000:300 JLINK_SetBPEx(Addr = 0x20000000, Type = 0xFFFFFFF2)  returns 0x00000002 (0000ms, 0250ms total)
T1584 000:300 JLINK_Go() (0001ms, 0251ms total)
T1584 000:301 JLINK_IsHalted() -- CPU_ReadMem(2 bytes @ 0x20000000)  returns TRUE (0003ms, 0254ms total)
T1584 000:304 JLINK_ReadReg(R15)  returns 0x20000000 (0000ms, 0251ms total)
T1584 000:304 JLINK_ClrBPEx(BPHandle = 0x00000002)  returns 0x00 (0000ms, 0251ms total)
T1584 000:304 JLINK_ReadReg(R0)  returns 0x00000001 (0000ms, 0251ms total)
T1584 000:304 JLINK_WriteReg(R0, 0x08000000)  returns 0x00 (0000ms, 0251ms total)
T1584 000:304 JLINK_WriteReg(R1, 0x00000800)  returns 0x00 (0000ms, 0251ms total)
T1584 000:304 JLINK_WriteReg(R2, 0x000000FF)  returns 0x00 (0000ms, 0251ms total)
T1584 000:304 JLINK_WriteReg(R3, 0x00000000)  returns 0x00 (0000ms, 0251ms total)
T1584 000:304 JLINK_WriteReg(R4, 0x00000000)  returns 0x00 (0000ms, 0251ms total)
T1584 000:304 JLINK_WriteReg(R5, 0x00000000)  returns 0x00 (0000ms, 0251ms total)
T1584 000:304 JLINK_WriteReg(R6, 0x00000000)  returns 0x00 (0000ms, 0251ms total)
T1584 000:304 JLINK_WriteReg(R7, 0x00000000)  returns 0x00 (0000ms, 0251ms total)
T1584 000:304 JLINK_WriteReg(R8, 0x00000000)  returns 0x00 (0000ms, 0251ms total)
T1584 000:304 JLINK_WriteReg(R9, 0x20000130)  returns 0x00 (0000ms, 0251ms total)
T1584 000:304 JLINK_WriteReg(R10, 0x00000000)  returns 0x00 (0000ms, 0251ms total)
T1584 000:304 JLINK_WriteReg(R11, 0x00000000)  returns 0x00 (0000ms, 0251ms total)
T1584 000:304 JLINK_WriteReg(R12, 0x00000000)  returns 0x00 (0000ms, 0251ms total)
T1584 000:304 JLINK_WriteReg(R13, 0x20001000)  returns 0x00 (0000ms, 0251ms total)
T1584 000:304 JLINK_WriteReg(R14, 0x20000001)  returns 0x00 (0000ms, 0251ms total)
T1584 000:304 JLINK_WriteReg(R15, 0x200000A0)  returns 0x00 (0000ms, 0251ms total)
T1584 000:304 JLINK_WriteReg(XPSR, 0x01000000)  returns 0x00 (0000ms, 0251ms total)
T1584 000:304 JLINK_WriteReg(MSP, 0x20001000)  returns 0x00 (0000ms, 0251ms total)
T1584 000:304 JLINK_WriteReg(PSP, 0x20001000)  returns 0x00 (0001ms, 0252ms total)
T1584 000:305 JLINK_WriteReg(CFBP, 0x00000000)  returns 0x00 (0000ms, 0252ms total)
T1584 000:305 JLINK_SetBPEx(Addr = 0x20000000, Type = 0xFFFFFFF2)  returns 0x00000003 (0000ms, 0252ms total)
T1584 000:305 JLINK_Go() (0001ms, 0253ms total)
T1584 000:306 JLINK_IsHalted()  returns FALSE (0001ms, 0254ms total)
T1584 000:332 JLINK_IsHalted() -- CPU_ReadMem(2 bytes @ 0x20000000)  returns TRUE (0003ms, 0256ms total)
T1584 000:335 JLINK_ReadReg(R15)  returns 0x20000000 (0000ms, 0253ms total)
T1584 000:335 JLINK_ClrBPEx(BPHandle = 0x00000003)  returns 0x00 (0000ms, 0253ms total)
T1584 000:335 JLINK_ReadReg(R0)  returns 0x00000000 (0000ms, 0253ms total)
T1584 000:335 JLINK_WriteReg(R0, 0x08000800)  returns 0x00 (0000ms, 0253ms total)
T1584 000:335 JLINK_WriteReg(R1, 0x00000800)  returns 0x00 (0000ms, 0253ms total)
T1584 000:335 JLINK_WriteReg(R2, 0x000000FF)  returns 0x00 (0000ms, 0253ms total)
T1584 000:335 JLINK_WriteReg(R3, 0x00000000)  returns 0x00 (0000ms, 0253ms total)
T1584 000:335 JLINK_WriteReg(R4, 0x00000000)  returns 0x00 (0000ms, 0253ms total)
T1584 000:335 JLINK_WriteReg(R5, 0x00000000)  returns 0x00 (0000ms, 0253ms total)
T1584 000:335 JLINK_WriteReg(R6, 0x00000000)  returns 0x00 (0000ms, 0253ms total)
T1584 000:335 JLINK_WriteReg(R7, 0x00000000)  returns 0x00 (0000ms, 0253ms total)
T1584 000:335 JLINK_WriteReg(R8, 0x00000000)  returns 0x00 (0000ms, 0253ms total)
T1584 000:335 JLINK_WriteReg(R9, 0x20000130)  returns 0x00 (0000ms, 0253ms total)
T1584 000:335 JLINK_WriteReg(R10, 0x00000000)  returns 0x00 (0000ms, 0253ms total)
T1584 000:335 JLINK_WriteReg(R11, 0x00000000)  returns 0x00 (0000ms, 0253ms total)
T1584 000:335 JLINK_WriteReg(R12, 0x00000000)  returns 0x00 (0000ms, 0253ms total)
T1584 000:335 JLINK_WriteReg(R13, 0x20001000)  returns 0x00 (0000ms, 0253ms total)
T1584 000:335 JLINK_WriteReg(R14, 0x20000001)  returns 0x00 (0000ms, 0253ms total)
T1584 000:335 JLINK_WriteReg(R15, 0x20000020)  returns 0x00 (0000ms, 0253ms total)
T1584 000:335 JLINK_WriteReg(XPSR, 0x01000000)  returns 0x00 (0000ms, 0253ms total)
T1584 000:335 JLINK_WriteReg(MSP, 0x20001000)  returns 0x00 (0000ms, 0253ms total)
T1584 000:335 JLINK_WriteReg(PSP, 0x20001000)  returns 0x00 (0000ms, 0253ms total)
T1584 000:335 JLINK_WriteReg(CFBP, 0x00000000)  returns 0x00 (0000ms, 0253ms total)
T1584 000:335 JLINK_SetBPEx(Addr = 0x20000000, Type = 0xFFFFFFF2)  returns 0x00000004 (0000ms, 0253ms total)
T1584 000:335 JLINK_Go() (0001ms, 0254ms total)
T1584 000:336 JLINK_IsHalted() -- CPU_ReadMem(2 bytes @ 0x20000000)  returns TRUE (0004ms, 0258ms total)
T1584 000:340 JLINK_ReadReg(R15)  returns 0x20000000 (0000ms, 0254ms total)
T1584 000:340 JLINK_ClrBPEx(BPHandle = 0x00000004)  returns 0x00 (0000ms, 0254ms total)
T1584 000:340 JLINK_ReadReg(R0)  returns 0x00000001 (0000ms, 0254ms total)
T1584 000:340 JLINK_WriteReg(R0, 0x08000800)  returns 0x00 (0000ms, 0254ms total)
T1584 000:340 JLINK_WriteReg(R1, 0x00000800)  returns 0x00 (0000ms, 0254ms total)
T1584 000:340 JLINK_WriteReg(R2, 0x000000FF)  returns 0x00 (0000ms, 0254ms total)
T1584 000:340 JLINK_WriteReg(R3, 0x00000000)  returns 0x00 (0000ms, 0254ms total)
T1584 000:340 JLINK_WriteReg(R4, 0x00000000)  returns 0x00 (0000ms, 0254ms total)
T1584 000:340 JLINK_WriteReg(R5, 0x00000000)  returns 0x00 (0000ms, 0254ms total)
T1584 000:340 JLINK_WriteReg(R6, 0x00000000)  returns 0x00 (0000ms, 0254ms total)
T1584 000:340 JLINK_WriteReg(R7, 0x00000000)  returns 0x00 (0000ms, 0254ms total)
T1584 000:340 JLINK_WriteReg(R8, 0x00000000)  returns 0x00 (0000ms, 0254ms total)
T1584 000:340 JLINK_WriteReg(R9, 0x20000130)  returns 0x00 (0000ms, 0254ms total)
T1584 000:340 JLINK_WriteReg(R10, 0x00000000)  returns 0x00 (0000ms, 0254ms total)
T1584 000:340 JLINK_WriteReg(R11, 0x00000000)  returns 0x00 (0000ms, 0254ms total)
T1584 000:340 JLINK_WriteReg(R12, 0x00000000)  returns 0x00 (0000ms, 0254ms total)
T1584 000:340 JLINK_WriteReg(R13, 0x20001000)  returns 0x00 (0000ms, 0254ms total)
T1584 000:340 JLINK_WriteReg(R14, 0x20000001)  returns 0x00 (0000ms, 0254ms total)
T1584 000:340 JLINK_WriteReg(R15, 0x200000A0)  returns 0x00 (0000ms, 0254ms total)
T1584 000:340 JLINK_WriteReg(XPSR, 0x01000000)  returns 0x00 (0000ms, 0254ms total)
T1584 000:340 JLINK_WriteReg(MSP, 0x20001000)  returns 0x00 (0000ms, 0254ms total)
T1584 000:340 JLINK_WriteReg(PSP, 0x20001000)  returns 0x00 (0000ms, 0254ms total)
T1584 000:340 JLINK_WriteReg(CFBP, 0x00000000)  returns 0x00 (0000ms, 0254ms total)
T1584 000:340 JLINK_SetBPEx(Addr = 0x20000000, Type = 0xFFFFFFF2)  returns 0x00000005 (0000ms, 0254ms total)
T1584 000:340 JLINK_Go() (0002ms, 0256ms total)
T1584 000:342 JLINK_IsHalted()  returns FALSE (0000ms, 0256ms total)
T1584 000:345 JLINK_IsHalted()  returns FALSE (0000ms, 0256ms total)
T1584 000:347 JLINK_IsHalted()  returns FALSE (0000ms, 0256ms total)
T1584 000:351 JLINK_IsHalted()  returns FALSE (0000ms, 0256ms total)
T1584 000:353 JLINK_IsHalted()  returns FALSE (0001ms, 0257ms total)
T1584 000:356 JLINK_IsHalted()  returns FALSE (0000ms, 0256ms total)
T1584 000:358 JLINK_IsHalted()  returns FALSE (0000ms, 0256ms total)
T1584 000:360 JLINK_IsHalted()  returns FALSE (0001ms, 0257ms total)
T1584 000:363 JLINK_IsHalted()  returns FALSE (0000ms, 0256ms total)
T1584 000:365 JLINK_IsHalted() -- CPU_ReadMem(2 bytes @ 0x20000000)  returns TRUE (0003ms, 0259ms total)
T1584 000:368 JLINK_ReadReg(R15)  returns 0x20000000 (0000ms, 0256ms total)
T1584 000:368 JLINK_ClrBPEx(BPHandle = 0x00000005)  returns 0x00 (0000ms, 0256ms total)
T1584 000:368 JLINK_ReadReg(R0)  returns 0x00000000 (0000ms, 0256ms total)
T1584 000:368 JLINK_WriteReg(R0, 0x08001000)  returns 0x00 (0000ms, 0256ms total)
T1584 000:368 JLINK_WriteReg(R1, 0x00000800)  returns 0x00 (0000ms, 0256ms total)
T1584 000:368 JLINK_WriteReg(R2, 0x000000FF)  returns 0x00 (0000ms, 0256ms total)
T1584 000:368 JLINK_WriteReg(R3, 0x00000000)  returns 0x00 (0000ms, 0256ms total)
T1584 000:368 JLINK_WriteReg(R4, 0x00000000)  returns 0x00 (0000ms, 0256ms total)
T1584 000:368 JLINK_WriteReg(R5, 0x00000000)  returns 0x00 (0000ms, 0256ms total)
T1584 000:368 JLINK_WriteReg(R6, 0x00000000)  returns 0x00 (0000ms, 0256ms total)
T1584 000:368 JLINK_WriteReg(R7, 0x00000000)  returns 0x00 (0000ms, 0256ms total)
T1584 000:368 JLINK_WriteReg(R8, 0x00000000)  returns 0x00 (0000ms, 0256ms total)
T1584 000:368 JLINK_WriteReg(R9, 0x20000130)  returns 0x00 (0000ms, 0256ms total)
T1584 000:368 JLINK_WriteReg(R10, 0x00000000)  returns 0x00 (0000ms, 0256ms total)
T1584 000:368 JLINK_WriteReg(R11, 0x00000000)  returns 0x00 (0000ms, 0256ms total)
T1584 000:368 JLINK_WriteReg(R12, 0x00000000)  returns 0x00 (0000ms, 0256ms total)
T1584 000:368 JLINK_WriteReg(R13, 0x20001000)  returns 0x00 (0000ms, 0256ms total)
T1584 000:368 JLINK_WriteReg(R14, 0x20000001)  returns 0x00 (0000ms, 0256ms total)
T1584 000:368 JLINK_WriteReg(R15, 0x20000020)  returns 0x00 (0000ms, 0256ms total)
T1584 000:368 JLINK_WriteReg(XPSR, 0x01000000)  returns 0x00 (0000ms, 0256ms total)
T1584 000:368 JLINK_WriteReg(MSP, 0x20001000)  returns 0x00 (0000ms, 0256ms total)
T1584 000:368 JLINK_WriteReg(PSP, 0x20001000)  returns 0x00 (0000ms, 0256ms total)
T1584 000:368 JLINK_WriteReg(CFBP, 0x00000000)  returns 0x00 (0000ms, 0256ms total)
T1584 000:368 JLINK_SetBPEx(Addr = 0x20000000, Type = 0xFFFFFFF2)  returns 0x00000006 (0000ms, 0256ms total)
T1584 000:368 JLINK_Go() (0001ms, 0257ms total)
T1584 000:369 JLINK_IsHalted() -- CPU_ReadMem(2 bytes @ 0x20000000)  returns TRUE (0003ms, 0260ms total)
T1584 000:372 JLINK_ReadReg(R15)  returns 0x20000000 (0000ms, 0257ms total)
T1584 000:372 JLINK_ClrBPEx(BPHandle = 0x00000006)  returns 0x00 (0000ms, 0257ms total)
T1584 000:372 JLINK_ReadReg(R0)  returns 0x00000001 (0000ms, 0257ms total)
T1584 000:372 JLINK_WriteReg(R0, 0x08001000)  returns 0x00 (0000ms, 0257ms total)
T1584 000:372 JLINK_WriteReg(R1, 0x00000800)  returns 0x00 (0000ms, 0257ms total)
T1584 000:372 JLINK_WriteReg(R2, 0x000000FF)  returns 0x00 (0000ms, 0257ms total)
T1584 000:372 JLINK_WriteReg(R3, 0x00000000)  returns 0x00 (0000ms, 0257ms total)
T1584 000:372 JLINK_WriteReg(R4, 0x00000000)  returns 0x00 (0000ms, 0257ms total)
T1584 000:372 JLINK_WriteReg(R5, 0x00000000)  returns 0x00 (0000ms, 0257ms total)
T1584 000:372 JLINK_WriteReg(R6, 0x00000000)  returns 0x00 (0000ms, 0257ms total)
T1584 000:372 JLINK_WriteReg(R7, 0x00000000)  returns 0x00 (0000ms, 0257ms total)
T1584 000:372 JLINK_WriteReg(R8, 0x00000000)  returns 0x00 (0000ms, 0257ms total)
T1584 000:372 JLINK_WriteReg(R9, 0x20000130)  returns 0x00 (0000ms, 0257ms total)
T1584 000:372 JLINK_WriteReg(R10, 0x00000000)  returns 0x00 (0000ms, 0257ms total)
T1584 000:372 JLINK_WriteReg(R11, 0x00000000)  returns 0x00 (0000ms, 0257ms total)
T1584 000:372 JLINK_WriteReg(R12, 0x00000000)  returns 0x00 (0000ms, 0257ms total)
T1584 000:372 JLINK_WriteReg(R13, 0x20001000)  returns 0x00 (0000ms, 0257ms total)
T1584 000:372 JLINK_WriteReg(R14, 0x20000001)  returns 0x00 (0000ms, 0257ms total)
T1584 000:372 JLINK_WriteReg(R15, 0x200000A0)  returns 0x00 (0000ms, 0257ms total)
T1584 000:372 JLINK_WriteReg(XPSR, 0x01000000)  returns 0x00 (0000ms, 0257ms total)
T1584 000:372 JLINK_WriteReg(MSP, 0x20001000)  returns 0x00 (0000ms, 0257ms total)
T1584 000:372 JLINK_WriteReg(PSP, 0x20001000)  returns 0x00 (0000ms, 0257ms total)
T1584 000:372 JLINK_WriteReg(CFBP, 0x00000000)  returns 0x00 (0000ms, 0257ms total)
T1584 000:373 JLINK_SetBPEx(Addr = 0x20000000, Type = 0xFFFFFFF2)  returns 0x00000007 (0000ms, 0257ms total)
T1584 000:373 JLINK_Go() (0001ms, 0258ms total)
T1584 000:374 JLINK_IsHalted()  returns FALSE (0000ms, 0258ms total)
T1584 000:379 JLINK_IsHalted()  returns FALSE (0000ms, 0258ms total)
T1584 000:381 JLINK_IsHalted()  returns FALSE (0000ms, 0258ms total)
T1584 000:384 JLINK_IsHalted()  returns FALSE (0000ms, 0258ms total)
T1584 000:386 JLINK_IsHalted()  returns FALSE (0000ms, 0258ms total)
T1584 000:388 JLINK_IsHalted()  returns FALSE (0000ms, 0258ms total)
T1584 000:390 JLINK_IsHalted()  returns FALSE (0000ms, 0258ms total)
T1584 000:392 JLINK_IsHalted()  returns FALSE (0000ms, 0258ms total)
T1584 000:394 JLINK_IsHalted()  returns FALSE (0000ms, 0258ms total)
T1584 000:396 JLINK_IsHalted() -- CPU_ReadMem(2 bytes @ 0x20000000)  returns TRUE (0003ms, 0261ms total)
T1584 000:399 JLINK_ReadReg(R15)  returns 0x20000000 (0000ms, 0258ms total)
T1584 000:399 JLINK_ClrBPEx(BPHandle = 0x00000007)  returns 0x00 (0000ms, 0258ms total)
T1584 000:399 JLINK_ReadReg(R0)  returns 0x00000000 (0000ms, 0258ms total)
T1584 000:399 JLINK_WriteReg(R0, 0x08001800)  returns 0x00 (0000ms, 0258ms total)
T1584 000:399 JLINK_WriteReg(R1, 0x00000800)  returns 0x00 (0000ms, 0258ms total)
T1584 000:399 JLINK_WriteReg(R2, 0x000000FF)  returns 0x00 (0000ms, 0258ms total)
T1584 000:399 JLINK_WriteReg(R3, 0x00000000)  returns 0x00 (0000ms, 0258ms total)
T1584 000:399 JLINK_WriteReg(R4, 0x00000000)  returns 0x00 (0000ms, 0258ms total)
T1584 000:399 JLINK_WriteReg(R5, 0x00000000)  returns 0x00 (0000ms, 0258ms total)
T1584 000:399 JLINK_WriteReg(R6, 0x00000000)  returns 0x00 (0000ms, 0258ms total)
T1584 000:399 JLINK_WriteReg(R7, 0x00000000)  returns 0x00 (0000ms, 0258ms total)
T1584 000:399 JLINK_WriteReg(R8, 0x00000000)  returns 0x00 (0000ms, 0258ms total)
T1584 000:399 JLINK_WriteReg(R9, 0x20000130)  returns 0x00 (0000ms, 0258ms total)
T1584 000:399 JLINK_WriteReg(R10, 0x00000000)  returns 0x00 (0000ms, 0258ms total)
T1584 000:399 JLINK_WriteReg(R11, 0x00000000)  returns 0x00 (0001ms, 0259ms total)
T1584 000:400 JLINK_WriteReg(R12, 0x00000000)  returns 0x00 (0000ms, 0259ms total)
T1584 000:400 JLINK_WriteReg(R13, 0x20001000)  returns 0x00 (0000ms, 0259ms total)
T1584 000:400 JLINK_WriteReg(R14, 0x20000001)  returns 0x00 (0000ms, 0259ms total)
T1584 000:400 JLINK_WriteReg(R15, 0x20000020)  returns 0x00 (0000ms, 0259ms total)
T1584 000:400 JLINK_WriteReg(XPSR, 0x01000000)  returns 0x00 (0000ms, 0259ms total)
T1584 000:400 JLINK_WriteReg(MSP, 0x20001000)  returns 0x00 (0000ms, 0259ms total)
T1584 000:400 JLINK_WriteReg(PSP, 0x20001000)  returns 0x00 (0000ms, 0259ms total)
T1584 000:400 JLINK_WriteReg(CFBP, 0x00000000)  returns 0x00 (0000ms, 0259ms total)
T1584 000:400 JLINK_SetBPEx(Addr = 0x20000000, Type = 0xFFFFFFF2)  returns 0x00000008 (0000ms, 0259ms total)
T1584 000:400 JLINK_Go() (0002ms, 0261ms total)
T1584 000:402 JLINK_IsHalted() -- CPU_ReadMem(2 bytes @ 0x20000000)  returns TRUE (0002ms, 0263ms total)
T1584 000:404 JLINK_ReadReg(R15)  returns 0x20000000 (0000ms, 0261ms total)
T1584 000:404 JLINK_ClrBPEx(BPHandle = 0x00000008)  returns 0x00 (0000ms, 0261ms total)
T1584 000:404 JLINK_ReadReg(R0)  returns 0x00000001 (0000ms, 0261ms total)
T1584 000:404 JLINK_WriteReg(R0, 0x08001800)  returns 0x00 (0000ms, 0261ms total)
T1584 000:404 JLINK_WriteReg(R1, 0x00000800)  returns 0x00 (0000ms, 0261ms total)
T1584 000:404 JLINK_WriteReg(R2, 0x000000FF)  returns 0x00 (0000ms, 0261ms total)
T1584 000:404 JLINK_WriteReg(R3, 0x00000000)  returns 0x00 (0000ms, 0261ms total)
T1584 000:404 JLINK_WriteReg(R4, 0x00000000)  returns 0x00 (0000ms, 0261ms total)
T1584 000:404 JLINK_WriteReg(R5, 0x00000000)  returns 0x00 (0000ms, 0261ms total)
T1584 000:404 JLINK_WriteReg(R6, 0x00000000)  returns 0x00 (0000ms, 0261ms total)
T1584 000:404 JLINK_WriteReg(R7, 0x00000000)  returns 0x00 (0000ms, 0261ms total)
T1584 000:404 JLINK_WriteReg(R8, 0x00000000)  returns 0x00 (0000ms, 0261ms total)
T1584 000:404 JLINK_WriteReg(R9, 0x20000130)  returns 0x00 (0000ms, 0261ms total)
T1584 000:404 JLINK_WriteReg(R10, 0x00000000)  returns 0x00 (0000ms, 0261ms total)
T1584 000:404 JLINK_WriteReg(R11, 0x00000000)  returns 0x00 (0000ms, 0261ms total)
T1584 000:404 JLINK_WriteReg(R12, 0x00000000)  returns 0x00 (0000ms, 0261ms total)
T1584 000:404 JLINK_WriteReg(R13, 0x20001000)  returns 0x00 (0000ms, 0261ms total)
T1584 000:404 JLINK_WriteReg(R14, 0x20000001)  returns 0x00 (0000ms, 0261ms total)
T1584 000:404 JLINK_WriteReg(R15, 0x200000A0)  returns 0x00 (0000ms, 0261ms total)
T1584 000:404 JLINK_WriteReg(XPSR, 0x01000000)  returns 0x00 (0000ms, 0261ms total)
T1584 000:404 JLINK_WriteReg(MSP, 0x20001000)  returns 0x00 (0000ms, 0261ms total)
T1584 000:404 JLINK_WriteReg(PSP, 0x20001000)  returns 0x00 (0000ms, 0261ms total)
T1584 000:404 JLINK_WriteReg(CFBP, 0x00000000)  returns 0x00 (0000ms, 0261ms total)
T1584 000:404 JLINK_SetBPEx(Addr = 0x20000000, Type = 0xFFFFFFF2)  returns 0x00000009 (0000ms, 0261ms total)
T1584 000:404 JLINK_Go() (0002ms, 0263ms total)
T1584 000:406 JLINK_IsHalted()  returns FALSE (0000ms, 0263ms total)
T1584 000:409 JLINK_IsHalted()  returns FALSE (0001ms, 0264ms total)
T1584 000:412 JLINK_IsHalted()  returns FALSE (0000ms, 0263ms total)
T1584 000:417 JLINK_IsHalted()  returns FALSE (0000ms, 0263ms total)
T1584 000:419 JLINK_IsHalted()  returns FALSE (0000ms, 0263ms total)
T1584 000:421 JLINK_IsHalted()  returns FALSE (0000ms, 0263ms total)
T1584 000:423 JLINK_IsHalted()  returns FALSE (0000ms, 0263ms total)
T1584 000:425 JLINK_IsHalted()  returns FALSE (0000ms, 0263ms total)
T1584 000:427 JLINK_IsHalted()  returns FALSE (0000ms, 0263ms total)
T1584 000:429 JLINK_IsHalted() -- CPU_ReadMem(2 bytes @ 0x20000000)  returns TRUE (0003ms, 0266ms total)
T1584 000:432 JLINK_ReadReg(R15)  returns 0x20000000 (0000ms, 0263ms total)
T1584 000:432 JLINK_ClrBPEx(BPHandle = 0x00000009)  returns 0x00 (0000ms, 0263ms total)
T1584 000:432 JLINK_ReadReg(R0)  returns 0x00000000 (0000ms, 0263ms total)
T1584 000:432 JLINK_WriteReg(R0, 0x08002000)  returns 0x00 (0000ms, 0263ms total)
T1584 000:432 JLINK_WriteReg(R1, 0x00000800)  returns 0x00 (0000ms, 0263ms total)
T1584 000:432 JLINK_WriteReg(R2, 0x000000FF)  returns 0x00 (0000ms, 0263ms total)
T1584 000:432 JLINK_WriteReg(R3, 0x00000000)  returns 0x00 (0000ms, 0263ms total)
T1584 000:432 JLINK_WriteReg(R4, 0x00000000)  returns 0x00 (0000ms, 0263ms total)
T1584 000:432 JLINK_WriteReg(R5, 0x00000000)  returns 0x00 (0000ms, 0263ms total)
T1584 000:432 JLINK_WriteReg(R6, 0x00000000)  returns 0x00 (0000ms, 0263ms total)
T1584 000:432 JLINK_WriteReg(R7, 0x00000000)  returns 0x00 (0000ms, 0263ms total)
T1584 000:432 JLINK_WriteReg(R8, 0x00000000)  returns 0x00 (0000ms, 0263ms total)
T1584 000:432 JLINK_WriteReg(R9, 0x20000130)  returns 0x00 (0000ms, 0263ms total)
T1584 000:432 JLINK_WriteReg(R10, 0x00000000)  returns 0x00 (0000ms, 0263ms total)
T1584 000:432 JLINK_WriteReg(R11, 0x00000000)  returns 0x00 (0000ms, 0263ms total)
T1584 000:432 JLINK_WriteReg(R12, 0x00000000)  returns 0x00 (0000ms, 0263ms total)
T1584 000:432 JLINK_WriteReg(R13, 0x20001000)  returns 0x00 (0000ms, 0263ms total)
T1584 000:433 JLINK_WriteReg(R14, 0x20000001)  returns 0x00 (0000ms, 0264ms total)
T1584 000:433 JLINK_WriteReg(R15, 0x20000020)  returns 0x00 (0000ms, 0264ms total)
T1584 000:433 JLINK_WriteReg(XPSR, 0x01000000)  returns 0x00 (0000ms, 0264ms total)
T1584 000:433 JLINK_WriteReg(MSP, 0x20001000)  returns 0x00 (0000ms, 0264ms total)
T1584 000:433 JLINK_WriteReg(PSP, 0x20001000)  returns 0x00 (0000ms, 0264ms total)
T1584 000:433 JLINK_WriteReg(CFBP, 0x00000000)  returns 0x00 (0000ms, 0264ms total)
T1584 000:433 JLINK_SetBPEx(Addr = 0x20000000, Type = 0xFFFFFFF2)  returns 0x0000000A (0000ms, 0264ms total)
T1584 000:433 JLINK_Go() (0001ms, 0265ms total)
T1584 000:434 JLINK_IsHalted() -- CPU_ReadMem(2 bytes @ 0x20000000)  returns TRUE (0003ms, 0268ms total)
T1584 000:437 JLINK_ReadReg(R15)  returns 0x20000000 (0000ms, 0265ms total)
T1584 000:437 JLINK_ClrBPEx(BPHandle = 0x0000000A)  returns 0x00 (0000ms, 0265ms total)
T1584 000:437 JLINK_ReadReg(R0)  returns 0x00000001 (0000ms, 0265ms total)
T1584 000:437 JLINK_WriteReg(R0, 0x08002000)  returns 0x00 (0000ms, 0265ms total)
T1584 000:437 JLINK_WriteReg(R1, 0x00000800)  returns 0x00 (0000ms, 0265ms total)
T1584 000:437 JLINK_WriteReg(R2, 0x000000FF)  returns 0x00 (0000ms, 0265ms total)
T1584 000:437 JLINK_WriteReg(R3, 0x00000000)  returns 0x00 (0000ms, 0265ms total)
T1584 000:437 JLINK_WriteReg(R4, 0x00000000)  returns 0x00 (0000ms, 0265ms total)
T1584 000:437 JLINK_WriteReg(R5, 0x00000000)  returns 0x00 (0000ms, 0265ms total)
T1584 000:437 JLINK_WriteReg(R6, 0x00000000)  returns 0x00 (0000ms, 0265ms total)
T1584 000:437 JLINK_WriteReg(R7, 0x00000000)  returns 0x00 (0000ms, 0265ms total)
T1584 000:437 JLINK_WriteReg(R8, 0x00000000)  returns 0x00 (0000ms, 0265ms total)
T1584 000:437 JLINK_WriteReg(R9, 0x20000130)  returns 0x00 (0000ms, 0265ms total)
T1584 000:437 JLINK_WriteReg(R10, 0x00000000)  returns 0x00 (0000ms, 0265ms total)
T1584 000:437 JLINK_WriteReg(R11, 0x00000000)  returns 0x00 (0000ms, 0265ms total)
T1584 000:437 JLINK_WriteReg(R12, 0x00000000)  returns 0x00 (0000ms, 0265ms total)
T1584 000:437 JLINK_WriteReg(R13, 0x20001000)  returns 0x00 (0000ms, 0265ms total)
T1584 000:437 JLINK_WriteReg(R14, 0x20000001)  returns 0x00 (0000ms, 0265ms total)
T1584 000:437 JLINK_WriteReg(R15, 0x200000A0)  returns 0x00 (0000ms, 0265ms total)
T1584 000:437 JLINK_WriteReg(XPSR, 0x01000000)  returns 0x00 (0000ms, 0265ms total)
T1584 000:437 JLINK_WriteReg(MSP, 0x20001000)  returns 0x00 (0000ms, 0265ms total)
T1584 000:437 JLINK_WriteReg(PSP, 0x20001000)  returns 0x00 (0000ms, 0265ms total)
T1584 000:437 JLINK_WriteReg(CFBP, 0x00000000)  returns 0x00 (0000ms, 0265ms total)
T1584 000:437 JLINK_SetBPEx(Addr = 0x20000000, Type = 0xFFFFFFF2)  returns 0x0000000B (0000ms, 0265ms total)
T1584 000:437 JLINK_Go() (0001ms, 0266ms total)
T1584 000:438 JLINK_IsHalted()  returns FALSE (0001ms, 0267ms total)
T1584 000:443 JLINK_IsHalted()  returns FALSE (0000ms, 0266ms total)
T1584 000:446 JLINK_IsHalted()  returns FALSE (0000ms, 0266ms total)
T1584 000:448 JLINK_IsHalted()  returns FALSE (0000ms, 0266ms total)
T1584 000:450 JLINK_IsHalted()  returns FALSE (0000ms, 0266ms total)
T1584 000:452 JLINK_IsHalted()  returns FALSE (0000ms, 0266ms total)
T1584 000:454 JLINK_IsHalted()  returns FALSE (0000ms, 0266ms total)
T1584 000:456 JLINK_IsHalted()  returns FALSE (0000ms, 0266ms total)
T1584 000:458 JLINK_IsHalted()  returns FALSE (0000ms, 0266ms total)
T1584 000:461 JLINK_IsHalted() -- CPU_ReadMem(2 bytes @ 0x20000000)  returns TRUE (0003ms, 0269ms total)
T1584 000:464 JLINK_ReadReg(R15)  returns 0x20000000 (0000ms, 0266ms total)
T1584 000:464 JLINK_ClrBPEx(BPHandle = 0x0000000B)  returns 0x00 (0000ms, 0266ms total)
T1584 000:464 JLINK_ReadReg(R0)  returns 0x00000000 (0000ms, 0266ms total)
T1584 000:464 JLINK_WriteReg(R0, 0x08002800)  returns 0x00 (0000ms, 0266ms total)
T1584 000:464 JLINK_WriteReg(R1, 0x00000800)  returns 0x00 (0000ms, 0266ms total)
T1584 000:464 JLINK_WriteReg(R2, 0x000000FF)  returns 0x00 (0000ms, 0266ms total)
T1584 000:464 JLINK_WriteReg(R3, 0x00000000)  returns 0x00 (0000ms, 0266ms total)
T1584 000:464 JLINK_WriteReg(R4, 0x00000000)  returns 0x00 (0000ms, 0266ms total)
T1584 000:464 JLINK_WriteReg(R5, 0x00000000)  returns 0x00 (0000ms, 0266ms total)
T1584 000:464 JLINK_WriteReg(R6, 0x00000000)  returns 0x00 (0000ms, 0266ms total)
T1584 000:464 JLINK_WriteReg(R7, 0x00000000)  returns 0x00 (0000ms, 0266ms total)
T1584 000:464 JLINK_WriteReg(R8, 0x00000000)  returns 0x00 (0000ms, 0266ms total)
T1584 000:464 JLINK_WriteReg(R9, 0x20000130)  returns 0x00 (0000ms, 0266ms total)
T1584 000:464 JLINK_WriteReg(R10, 0x00000000)  returns 0x00 (0000ms, 0266ms total)
T1584 000:464 JLINK_WriteReg(R11, 0x00000000)  returns 0x00 (0000ms, 0266ms total)
T1584 000:464 JLINK_WriteReg(R12, 0x00000000)  returns 0x00 (0000ms, 0266ms total)
T1584 000:464 JLINK_WriteReg(R13, 0x20001000)  returns 0x00 (0000ms, 0266ms total)
T1584 000:464 JLINK_WriteReg(R14, 0x20000001)  returns 0x00 (0000ms, 0266ms total)
T1584 000:464 JLINK_WriteReg(R15, 0x20000020)  returns 0x00 (0001ms, 0267ms total)
T1584 000:465 JLINK_WriteReg(XPSR, 0x01000000)  returns 0x00 (0000ms, 0267ms total)
T1584 000:465 JLINK_WriteReg(MSP, 0x20001000)  returns 0x00 (0000ms, 0267ms total)
T1584 000:465 JLINK_WriteReg(PSP, 0x20001000)  returns 0x00 (0000ms, 0267ms total)
T1584 000:465 JLINK_WriteReg(CFBP, 0x00000000)  returns 0x00 (0000ms, 0267ms total)
T1584 000:465 JLINK_SetBPEx(Addr = 0x20000000, Type = 0xFFFFFFF2)  returns 0x0000000C (0000ms, 0267ms total)
T1584 000:465 JLINK_Go() (0001ms, 0268ms total)
T1584 000:466 JLINK_IsHalted() -- CPU_ReadMem(2 bytes @ 0x20000000)  returns TRUE (0003ms, 0271ms total)
T1584 000:469 JLINK_ReadReg(R15)  returns 0x20000000 (0000ms, 0268ms total)
T1584 000:469 JLINK_ClrBPEx(BPHandle = 0x0000000C)  returns 0x00 (0000ms, 0268ms total)
T1584 000:469 JLINK_ReadReg(R0)  returns 0x00000001 (0000ms, 0268ms total)
T1584 000:469 JLINK_WriteReg(R0, 0x08002800)  returns 0x00 (0000ms, 0268ms total)
T1584 000:469 JLINK_WriteReg(R1, 0x00000800)  returns 0x00 (0000ms, 0268ms total)
T1584 000:469 JLINK_WriteReg(R2, 0x000000FF)  returns 0x00 (0000ms, 0268ms total)
T1584 000:469 JLINK_WriteReg(R3, 0x00000000)  returns 0x00 (0000ms, 0268ms total)
T1584 000:469 JLINK_WriteReg(R4, 0x00000000)  returns 0x00 (0000ms, 0268ms total)
T1584 000:469 JLINK_WriteReg(R5, 0x00000000)  returns 0x00 (0000ms, 0268ms total)
T1584 000:469 JLINK_WriteReg(R6, 0x00000000)  returns 0x00 (0000ms, 0268ms total)
T1584 000:469 JLINK_WriteReg(R7, 0x00000000)  returns 0x00 (0000ms, 0268ms total)
T1584 000:469 JLINK_WriteReg(R8, 0x00000000)  returns 0x00 (0000ms, 0268ms total)
T1584 000:469 JLINK_WriteReg(R9, 0x20000130)  returns 0x00 (0000ms, 0268ms total)
T1584 000:469 JLINK_WriteReg(R10, 0x00000000)  returns 0x00 (0000ms, 0268ms total)
T1584 000:469 JLINK_WriteReg(R11, 0x00000000)  returns 0x00 (0000ms, 0268ms total)
T1584 000:469 JLINK_WriteReg(R12, 0x00000000)  returns 0x00 (0000ms, 0268ms total)
T1584 000:469 JLINK_WriteReg(R13, 0x20001000)  returns 0x00 (0000ms, 0268ms total)
T1584 000:469 JLINK_WriteReg(R14, 0x20000001)  returns 0x00 (0000ms, 0268ms total)
T1584 000:469 JLINK_WriteReg(R15, 0x200000A0)  returns 0x00 (0000ms, 0268ms total)
T1584 000:469 JLINK_WriteReg(XPSR, 0x01000000)  returns 0x00 (0000ms, 0268ms total)
T1584 000:469 JLINK_WriteReg(MSP, 0x20001000)  returns 0x00 (0000ms, 0268ms total)
T1584 000:469 JLINK_WriteReg(PSP, 0x20001000)  returns 0x00 (0000ms, 0268ms total)
T1584 000:469 JLINK_WriteReg(CFBP, 0x00000000)  returns 0x00 (0000ms, 0268ms total)
T1584 000:469 JLINK_SetBPEx(Addr = 0x20000000, Type = 0xFFFFFFF2)  returns 0x0000000D (0000ms, 0268ms total)
T1584 000:469 JLINK_Go() (0001ms, 0269ms total)
T1584 000:470 JLINK_IsHalted()  returns FALSE (0001ms, 0270ms total)
T1584 000:473 JLINK_IsHalted()  returns FALSE (0000ms, 0269ms total)
T1584 000:475 JLINK_IsHalted()  returns FALSE (0000ms, 0269ms total)
T1584 000:478 JLINK_IsHalted()  returns FALSE (0001ms, 0270ms total)
T1584 000:481 JLINK_IsHalted()  returns FALSE (0000ms, 0269ms total)
T1584 000:483 JLINK_IsHalted()  returns FALSE (0000ms, 0269ms total)
T1584 000:485 JLINK_IsHalted()  returns FALSE (0000ms, 0269ms total)
T1584 000:487 JLINK_IsHalted()  returns FALSE (0000ms, 0269ms total)
T1584 000:489 JLINK_IsHalted()  returns FALSE (0000ms, 0269ms total)
T1584 000:491 JLINK_IsHalted()  returns FALSE (0000ms, 0269ms total)
T1584 000:493 JLINK_IsHalted() -- CPU_ReadMem(2 bytes @ 0x20000000)  returns TRUE (0003ms, 0272ms total)
T1584 000:496 JLINK_ReadReg(R15)  returns 0x20000000 (0000ms, 0269ms total)
T1584 000:496 JLINK_ClrBPEx(BPHandle = 0x0000000D)  returns 0x00 (0000ms, 0269ms total)
T1584 000:496 JLINK_ReadReg(R0)  returns 0x00000000 (0000ms, 0269ms total)
T1584 000:496 JLINK_WriteReg(R0, 0x08003000)  returns 0x00 (0000ms, 0269ms total)
T1584 000:496 JLINK_WriteReg(R1, 0x00000800)  returns 0x00 (0000ms, 0269ms total)
T1584 000:496 JLINK_WriteReg(R2, 0x000000FF)  returns 0x00 (0000ms, 0269ms total)
T1584 000:496 JLINK_WriteReg(R3, 0x00000000)  returns 0x00 (0000ms, 0269ms total)
T1584 000:496 JLINK_WriteReg(R4, 0x00000000)  returns 0x00 (0000ms, 0269ms total)
T1584 000:496 JLINK_WriteReg(R5, 0x00000000)  returns 0x00 (0000ms, 0269ms total)
T1584 000:496 JLINK_WriteReg(R6, 0x00000000)  returns 0x00 (0000ms, 0269ms total)
T1584 000:496 JLINK_WriteReg(R7, 0x00000000)  returns 0x00 (0000ms, 0269ms total)
T1584 000:496 JLINK_WriteReg(R8, 0x00000000)  returns 0x00 (0000ms, 0269ms total)
T1584 000:496 JLINK_WriteReg(R9, 0x20000130)  returns 0x00 (0000ms, 0269ms total)
T1584 000:496 JLINK_WriteReg(R10, 0x00000000)  returns 0x00 (0000ms, 0269ms total)
T1584 000:496 JLINK_WriteReg(R11, 0x00000000)  returns 0x00 (0000ms, 0269ms total)
T1584 000:496 JLINK_WriteReg(R12, 0x00000000)  returns 0x00 (0000ms, 0269ms total)
T1584 000:496 JLINK_WriteReg(R13, 0x20001000)  returns 0x00 (0000ms, 0269ms total)
T1584 000:496 JLINK_WriteReg(R14, 0x20000001)  returns 0x00 (0000ms, 0269ms total)
T1584 000:496 JLINK_WriteReg(R15, 0x20000020)  returns 0x00 (0000ms, 0269ms total)
T1584 000:496 JLINK_WriteReg(XPSR, 0x01000000)  returns 0x00 (0000ms, 0269ms total)
T1584 000:496 JLINK_WriteReg(MSP, 0x20001000)  returns 0x00 (0000ms, 0269ms total)
T1584 000:496 JLINK_WriteReg(PSP, 0x20001000)  returns 0x00 (0000ms, 0269ms total)
T1584 000:496 JLINK_WriteReg(CFBP, 0x00000000)  returns 0x00 (0000ms, 0269ms total)
T1584 000:496 JLINK_SetBPEx(Addr = 0x20000000, Type = 0xFFFFFFF2)  returns 0x0000000E (0000ms, 0269ms total)
T1584 000:496 JLINK_Go() (0002ms, 0271ms total)
T1584 000:498 JLINK_IsHalted() -- CPU_ReadMem(2 bytes @ 0x20000000)  returns TRUE (0003ms, 0274ms total)
T1584 000:501 JLINK_ReadReg(R15)  returns 0x20000000 (0000ms, 0271ms total)
T1584 000:501 JLINK_ClrBPEx(BPHandle = 0x0000000E)  returns 0x00 (0000ms, 0271ms total)
T1584 000:501 JLINK_ReadReg(R0)  returns 0x00000001 (0000ms, 0271ms total)
T1584 000:501 JLINK_WriteReg(R0, 0x08003000)  returns 0x00 (0000ms, 0271ms total)
T1584 000:501 JLINK_WriteReg(R1, 0x00000800)  returns 0x00 (0000ms, 0271ms total)
T1584 000:501 JLINK_WriteReg(R2, 0x000000FF)  returns 0x00 (0000ms, 0271ms total)
T1584 000:501 JLINK_WriteReg(R3, 0x00000000)  returns 0x00 (0000ms, 0271ms total)
T1584 000:501 JLINK_WriteReg(R4, 0x00000000)  returns 0x00 (0000ms, 0271ms total)
T1584 000:501 JLINK_WriteReg(R5, 0x00000000)  returns 0x00 (0000ms, 0271ms total)
T1584 000:501 JLINK_WriteReg(R6, 0x00000000)  returns 0x00 (0000ms, 0271ms total)
T1584 000:501 JLINK_WriteReg(R7, 0x00000000)  returns 0x00 (0000ms, 0271ms total)
T1584 000:501 JLINK_WriteReg(R8, 0x00000000)  returns 0x00 (0000ms, 0271ms total)
T1584 000:501 JLINK_WriteReg(R9, 0x20000130)  returns 0x00 (0000ms, 0271ms total)
T1584 000:501 JLINK_WriteReg(R10, 0x00000000)  returns 0x00 (0000ms, 0271ms total)
T1584 000:501 JLINK_WriteReg(R11, 0x00000000)  returns 0x00 (0000ms, 0271ms total)
T1584 000:501 JLINK_WriteReg(R12, 0x00000000)  returns 0x00 (0000ms, 0271ms total)
T1584 000:501 JLINK_WriteReg(R13, 0x20001000)  returns 0x00 (0000ms, 0271ms total)
T1584 000:501 JLINK_WriteReg(R14, 0x20000001)  returns 0x00 (0000ms, 0271ms total)
T1584 000:501 JLINK_WriteReg(R15, 0x200000A0)  returns 0x00 (0000ms, 0271ms total)
T1584 000:501 JLINK_WriteReg(XPSR, 0x01000000)  returns 0x00 (0000ms, 0271ms total)
T1584 000:501 JLINK_WriteReg(MSP, 0x20001000)  returns 0x00 (0000ms, 0271ms total)
T1584 000:501 JLINK_WriteReg(PSP, 0x20001000)  returns 0x00 (0000ms, 0271ms total)
T1584 000:501 JLINK_WriteReg(CFBP, 0x00000000)  returns 0x00 (0000ms, 0271ms total)
T1584 000:501 JLINK_SetBPEx(Addr = 0x20000000, Type = 0xFFFFFFF2)  returns 0x0000000F (0000ms, 0271ms total)
T1584 000:501 JLINK_Go() (0001ms, 0272ms total)
T1584 000:502 JLINK_IsHalted()  returns FALSE (0001ms, 0273ms total)
T1584 000:506 JLINK_IsHalted()  returns FALSE (0000ms, 0272ms total)
T1584 000:508 JLINK_IsHalted()  returns FALSE (0000ms, 0272ms total)
T1584 000:513 JLINK_IsHalted()  returns FALSE (0000ms, 0272ms total)
T1584 000:515 JLINK_IsHalted()  returns FALSE (0000ms, 0272ms total)
T1584 000:517 JLINK_IsHalted()  returns FALSE (0000ms, 0272ms total)
T1584 000:519 JLINK_IsHalted()  returns FALSE (0000ms, 0272ms total)
T1584 000:521 JLINK_IsHalted()  returns FALSE (0000ms, 0272ms total)
T1584 000:525 JLINK_IsHalted() -- CPU_ReadMem(2 bytes @ 0x20000000)  returns TRUE (0002ms, 0274ms total)
T1584 000:527 JLINK_ReadReg(R15)  returns 0x20000000 (0000ms, 0272ms total)
T1584 000:527 JLINK_ClrBPEx(BPHandle = 0x0000000F)  returns 0x00 (0000ms, 0272ms total)
T1584 000:527 JLINK_ReadReg(R0)  returns 0x00000000 (0000ms, 0272ms total)
T1584 000:528 JLINK_WriteReg(R0, 0x08003800)  returns 0x00 (0000ms, 0272ms total)
T1584 000:528 JLINK_WriteReg(R1, 0x00000800)  returns 0x00 (0000ms, 0272ms total)
T1584 000:528 JLINK_WriteReg(R2, 0x000000FF)  returns 0x00 (0000ms, 0272ms total)
T1584 000:528 JLINK_WriteReg(R3, 0x00000000)  returns 0x00 (0000ms, 0272ms total)
T1584 000:528 JLINK_WriteReg(R4, 0x00000000)  returns 0x00 (0000ms, 0272ms total)
T1584 000:528 JLINK_WriteReg(R5, 0x00000000)  returns 0x00 (0000ms, 0272ms total)
T1584 000:528 JLINK_WriteReg(R6, 0x00000000)  returns 0x00 (0000ms, 0272ms total)
T1584 000:528 JLINK_WriteReg(R7, 0x00000000)  returns 0x00 (0000ms, 0272ms total)
T1584 000:528 JLINK_WriteReg(R8, 0x00000000)  returns 0x00 (0000ms, 0272ms total)
T1584 000:528 JLINK_WriteReg(R9, 0x20000130)  returns 0x00 (0000ms, 0272ms total)
T1584 000:528 JLINK_WriteReg(R10, 0x00000000)  returns 0x00 (0000ms, 0272ms total)
T1584 000:528 JLINK_WriteReg(R11, 0x00000000)  returns 0x00 (0000ms, 0272ms total)
T1584 000:528 JLINK_WriteReg(R12, 0x00000000)  returns 0x00 (0000ms, 0272ms total)
T1584 000:528 JLINK_WriteReg(R13, 0x20001000)  returns 0x00 (0000ms, 0272ms total)
T1584 000:528 JLINK_WriteReg(R14, 0x20000001)  returns 0x00 (0000ms, 0272ms total)
T1584 000:528 JLINK_WriteReg(R15, 0x20000020)  returns 0x00 (0000ms, 0272ms total)
T1584 000:528 JLINK_WriteReg(XPSR, 0x01000000)  returns 0x00 (0000ms, 0272ms total)
T1584 000:528 JLINK_WriteReg(MSP, 0x20001000)  returns 0x00 (0000ms, 0272ms total)
T1584 000:528 JLINK_WriteReg(PSP, 0x20001000)  returns 0x00 (0000ms, 0272ms total)
T1584 000:528 JLINK_WriteReg(CFBP, 0x00000000)  returns 0x00 (0000ms, 0272ms total)
T1584 000:528 JLINK_SetBPEx(Addr = 0x20000000, Type = 0xFFFFFFF2)  returns 0x00000010 (0000ms, 0272ms total)
T1584 000:528 JLINK_Go() (0002ms, 0274ms total)
T1584 000:530 JLINK_IsHalted() -- CPU_ReadMem(2 bytes @ 0x20000000)  returns TRUE (0002ms, 0276ms total)
T1584 000:532 JLINK_ReadReg(R15)  returns 0x20000000 (0000ms, 0274ms total)
T1584 000:532 JLINK_ClrBPEx(BPHandle = 0x00000010)  returns 0x00 (0000ms, 0274ms total)
T1584 000:532 JLINK_ReadReg(R0)  returns 0x00000001 (0000ms, 0274ms total)
T1584 000:532 JLINK_WriteReg(R0, 0x08003800)  returns 0x00 (0000ms, 0274ms total)
T1584 000:532 JLINK_WriteReg(R1, 0x00000800)  returns 0x00 (0000ms, 0274ms total)
T1584 000:532 JLINK_WriteReg(R2, 0x000000FF)  returns 0x00 (0000ms, 0274ms total)
T1584 000:532 JLINK_WriteReg(R3, 0x00000000)  returns 0x00 (0000ms, 0274ms total)
T1584 000:532 JLINK_WriteReg(R4, 0x00000000)  returns 0x00 (0000ms, 0274ms total)
T1584 000:532 JLINK_WriteReg(R5, 0x00000000)  returns 0x00 (0000ms, 0274ms total)
T1584 000:532 JLINK_WriteReg(R6, 0x00000000)  returns 0x00 (0000ms, 0274ms total)
T1584 000:532 JLINK_WriteReg(R7, 0x00000000)  returns 0x00 (0000ms, 0274ms total)
T1584 000:532 JLINK_WriteReg(R8, 0x00000000)  returns 0x00 (0000ms, 0274ms total)
T1584 000:532 JLINK_WriteReg(R9, 0x20000130)  returns 0x00 (0000ms, 0274ms total)
T1584 000:532 JLINK_WriteReg(R10, 0x00000000)  returns 0x00 (0000ms, 0274ms total)
T1584 000:532 JLINK_WriteReg(R11, 0x00000000)  returns 0x00 (0000ms, 0274ms total)
T1584 000:532 JLINK_WriteReg(R12, 0x00000000)  returns 0x00 (0000ms, 0274ms total)
T1584 000:532 JLINK_WriteReg(R13, 0x20001000)  returns 0x00 (0000ms, 0274ms total)
T1584 000:532 JLINK_WriteReg(R14, 0x20000001)  returns 0x00 (0001ms, 0275ms total)
